!ECMF02-4CMX8
!Typical device
!26/10/11  08:58
!E5071BSP.exe
!Probes on PCB
!Port 1: IN1
!Port 2: IN2
!Port 3: OUT1
!Port 4: OUT2
!P1 Probe Type :ACP40-SSG-400; Probe S/N : DF28G
!P2 Probe Type :ACP40-SSG-400; Probe S/N : DF28G
!P3 Probe Type :ACP40-GSS-400; Probe S/N : DF28D
!P4 Probe Type :ACP40-GSS-400; Probe S/N : DF28D
! Instrument Manufacturer: Agilent Technologies
! Instrument Model: E5071C
! Instrument Serial Number: MY46109436
! Instrument Firmware Rev: A.09.54
!Start Freq. :100.000kHz; Stop Freq. : 8.500GHz
!Number of points : 1601; Sweep : LOGARITHMIC
!Ports power : 0.000000dBm; IFBW : 100.000000Hz
!Calibration kit : 129-248 (9069)
!Prober : PM8 (Manual prober)
!Darkness measurement :YES
!Voltage measurement :NO
!Temperature measurement :NO
!I-O
! Freq ReS11 ImS11 ReS12 ImS12 ReS13 ImS13 ReS14 ImS14
!          ReS21 ImS21 ReS22 ImS22 ReS23 ImS23 ReS24 ImS24
!          ReS31 ImS31 ReS32 ImS32 ReS33 ImS33 ReS34 ImS34
!          ReS41 ImS41 ReS42 ImS42 ReS43 ImS43 ReS44 ImS44
# Hz  S  RI  R  50
+1.00000000000000E+5	+2.50660599260000E-2	-2.33370188820000E-5	+5.43551851596000E-4	+1.47046184615000E-4	+9.75386001345000E-1	-4.09377562814000E-4	-5.27912098295000E-4	-8.38652090144000E-5
+5.19763711466000E-4	+1.33725221754000E-4	+2.46173960855000E-2	+2.96256336767000E-5	-5.10408702450000E-4	-1.11481499395000E-4	+9.75237745315000E-1	-2.61126192737000E-4
+9.74957646132000E-1	-4.14206136175000E-4	-5.33957811213000E-4	-9.87208350705000E-5	+2.44973708679000E-2	+1.81371852159000E-5	+5.30887585323000E-4	+1.30029874381000E-4
-5.22976066543000E-4	-1.06923372250000E-4	+9.75378571600000E-1	-3.77370728303000E-4	+5.07670051342000E-4	+1.17675708856000E-4	+2.48337758627000E-2	+6.47080611213000E-5
+1.00835706749000E+5	+2.50372110896000E-2	+2.56693971743000E-5	+5.27942859770000E-4	+1.35804682803000E-4	+9.75392192793000E-1	-3.73278183284000E-4	-5.25706646283000E-4	-1.03976513216000E-4
+5.26074380477000E-4	+1.26979398560000E-4	+2.45718697775000E-2	+5.38357771929000E-5	-5.43878499387000E-4	-1.12513398495000E-4	+9.75227451600000E-1	-3.34516046393000E-4
+9.74927592816000E-1	-3.73409908073000E-4	-5.35937067947000E-4	-1.05842208440000E-4	+2.45222716598000E-2	+4.92743841646000E-5	+5.20170310674000E-4	+1.31984969650000E-4
-5.47985043442000E-4	-9.21714317873000E-5	+9.75358969242000E-1	-3.99510626837000E-4	+5.09193852150000E-4	+1.11587693130000E-4	+2.48250418628000E-2	+3.66877958164000E-5
+1.01671413498000E+5	+2.50355662758000E-2	-5.00608626306000E-6	+5.21102446032000E-4	+1.31918218826000E-4	+9.75414788053000E-1	-3.86410034580000E-4	-5.24401791725000E-4	-1.01201633474000E-4
+5.36470335144000E-4	+1.29411505441000E-4	+2.45965245316000E-2	+7.95823341034000E-5	-5.19049799504000E-4	-1.08514219653000E-4	+9.75260569761000E-1	-2.47074660253000E-4
+9.74902205934000E-1	-3.98888230877000E-4	-5.17540195464000E-4	-1.05964701110000E-4	+2.45060902667000E-2	+4.42096808228000E-5	+5.02941231053000E-4	+1.30350532434000E-4
-5.39972394285000E-4	-1.09544052557000E-4	+9.75390583377000E-1	-3.24245840754000E-4	+5.20993813962000E-4	+1.29949294097000E-4	+2.48564261629000E-2	+7.86744298806000E-5
+1.02507120247000E+5	+2.50057820866000E-2	-3.77889810065000E-5	+5.09542045282000E-4	+1.11430324530000E-4	+9.75424778491000E-1	-3.80437264223000E-4	-5.27235850009000E-4	-9.70676120703000E-5
+5.34535832782000E-4	+1.19711239219000E-4	+2.46355261622000E-2	+6.74929927691000E-5	-5.14011799720000E-4	-1.03539496984000E-4	+9.75209127954000E-1	-2.88144625905000E-4
+9.74926767917000E-1	-4.01477665305000E-4	-5.14105312661000E-4	-1.16520606476000E-4	+2.45423671712000E-2	+3.01476906357000E-5	+5.43663038313000E-4	+1.29516882312000E-4
-5.32345547383000E-4	-9.88121884978000E-5	+9.75404167994000E-1	-3.66577509184000E-4	+5.16579158328000E-4	+1.19124550035000E-4	+2.48292809582000E-2	+5.52233710218000E-5
+1.03342826996000E+5	+2.50115705014000E-2	+4.74394872597000E-6	+5.13137727280000E-4	+1.30686757770000E-4	+9.75420745476000E-1	-3.65225861975000E-4	-5.27637257700000E-4	-9.25430862924000E-5
+5.26453316652000E-4	+1.43061260610000E-4	+2.45903626412000E-2	+7.60833348017000E-5	-5.36271626957000E-4	-8.91557310460000E-5	+9.75205859712000E-1	-2.84140293169000E-4
+9.74887445157000E-1	-3.65241281582000E-4	-5.30093896560000E-4	-9.22413723593000E-5	+2.45429612482000E-2	+7.67039480992000E-5	+5.29035744252000E-4	+1.35120961027000E-4
-5.38761069773000E-4	-1.00889040676000E-4	+9.75387813229000E-1	-3.54621006435000E-4	+5.26414999863000E-4	+1.29726448951000E-4	+2.48187385943000E-2	+6.15743769459000E-5
+1.04178533745000E+5	+2.50529139603000E-2	-8.35498992819000E-6	+5.22064827749000E-4	+1.31619429167000E-4	+9.75424489843000E-1	-3.37977114694000E-4	-5.24536133055000E-4	-9.42366343327000E-5
+5.27533588249000E-4	+1.22354563459000E-4	+2.45892654842000E-2	+5.67243118318000E-5	-5.13459961506000E-4	-9.75476796062000E-5	+9.75218604581000E-1	-2.84388007708000E-4
+9.74898881729000E-1	-3.97664870188000E-4	-5.29869885606000E-4	-1.07237703590000E-4	+2.45291532367000E-2	+9.29689698014000E-5	+5.30483850859000E-4	+1.17253627496000E-4
-5.46923271795000E-4	-8.98266579212000E-5	+9.75368348199000E-1	-3.87509955394000E-4	+5.13076013103000E-4	+1.45449573247000E-4	+2.48262839632000E-2	+4.66753937850000E-5
+1.05014240494000E+5	+2.50356817815000E-2	+2.88268956866000E-5	+5.22334167966000E-4	+1.34493321867000E-4	+9.75419100541000E-1	-3.68421858820000E-4	-5.23728212227000E-4	-9.56445041335000E-5
+5.37889033957000E-4	+1.44712306468000E-4	+2.45758038061000E-2	+6.99735822113000E-5	-5.19136740101000E-4	-1.02464415869000E-4	+9.75221865083000E-1	-2.87900361789000E-4
+9.74878890756000E-1	-3.75167776990000E-4	-5.31955657364000E-4	-1.02672451749000E-4	+2.45277648608000E-2	+4.52653193914000E-5	+5.35684777391000E-4	+1.23155880244000E-4
-5.30223005725000E-4	-8.17688975555000E-5	+9.75381775885000E-1	-3.54380826612000E-4	+5.31551424209000E-4	+1.24796382341000E-4	+2.48347369049000E-2	+3.70539220369000E-5
+1.05849947243000E+5	+2.50459352696000E-2	-1.63881090538000E-5	+5.32805088697000E-4	+1.26753732711000E-4	+9.75397090256000E-1	-4.05890747421000E-4	-5.16254777445000E-4	-1.02485922692000E-4
+5.48824122043000E-4	+1.28995865187000E-4	+2.46293464994000E-2	+8.43586175335000E-5	-5.27296050340000E-4	-1.15229112810000E-4	+9.75239233565000E-1	-2.99556139945000E-4
+9.74895571437000E-1	-4.02303001712000E-4	-5.26068387939000E-4	-1.04391885157000E-4	+2.45029146494000E-2	+3.69017098086000E-5	+5.15374293686000E-4	+1.37574846441000E-4
-5.37557231521000E-4	-9.30400529856000E-5	+9.75410645408000E-1	-3.38563680648000E-4	+5.01922189383000E-4	+1.38171089537000E-4	+2.48621876691000E-2	+4.32388840028000E-5
+1.06685653992000E+5	+2.50293158383000E-2	-4.13290554045000E-5	+5.35747119484000E-4	+1.24840869499000E-4	+9.75414942109000E-1	-3.54513065576000E-4	-5.29398325829000E-4	-9.38538887635000E-5
+5.41485862333000E-4	+1.23975726649000E-4	+2.46226101487000E-2	+8.09115677107000E-5	-5.30721122245000E-4	-9.86209848167000E-5	+9.75226180119000E-1	-3.15634219063000E-4
+9.74861411316000E-1	-3.99405623789000E-4	-5.32045698107000E-4	-1.12319594944000E-4	+2.45438463494000E-2	+6.85458602431000E-5	+5.15629702132000E-4	+1.26454905836000E-4
-5.32600843180000E-4	-1.03295261891000E-4	+9.75402585046000E-1	-3.58657227133000E-4	+5.11487273020000E-4	+1.14075528062000E-4	+2.48828787241000E-2	+6.59936861354000E-5
+1.07521360741000E+5	+2.50519272583000E-2	+6.73646100062000E-6	+5.18221308213000E-4	+1.28428061986000E-4	+9.75402334018000E-1	-3.72332123759000E-4	-5.27910595186000E-4	-7.62430433895000E-5
+5.32295240850000E-4	+1.27115906585000E-4	+2.45843409800000E-2	+1.00157342063000E-4	-5.23854167036000E-4	-1.12481515591000E-4	+9.75213371464000E-1	-3.44127821346000E-4
+9.74886500557000E-1	-4.01980542028000E-4	-5.16338644239000E-4	-1.03202714723000E-4	+2.45317805203000E-2	+6.47247019154000E-5	+5.38254919809000E-4	+1.13368409499000E-4
-5.48870233404000E-4	-1.03221788310000E-4	+9.75387940575000E-1	-3.72704700772000E-4	+5.28088692490000E-4	+1.10684115552000E-4	+2.48202940284000E-2	+4.51581526321000E-5
+1.08357067490000E+5	+2.50303559839000E-2	+7.06403721387000E-6	+5.22948725850000E-4	+1.31972738489000E-4	+9.75388306529000E-1	-3.43324522234000E-4	-5.16918211742000E-4	-1.02983101860000E-4
+5.46787236663000E-4	+1.31257858829000E-4	+2.45317153212000E-2	+8.32450593620000E-5	-5.09014057033000E-4	-9.48073224126000E-5	+9.75214580537000E-1	-3.27720911917000E-4
+9.74908979499000E-1	-3.86245851284000E-4	-5.18173793706000E-4	-9.02475618623000E-5	+2.44791782707000E-2	+5.25072126761000E-5	+5.44703404244000E-4	+1.19501902051000E-4
-5.32615648555000E-4	-8.71665149463000E-5	+9.75341730001000E-1	-4.13079270570000E-4	+5.18052679555000E-4	+1.28996049077000E-4	+2.48583274411000E-2	+4.86553129929000E-5
+1.09192774239000E+5	+2.50505947310000E-2	+5.09599578611000E-6	+5.34478490647000E-4	+1.43174648878000E-4	+9.75394306129000E-1	-4.08880520481000E-4	-5.26400030100000E-4	-8.78634235170000E-5
+5.49055170881000E-4	+1.31384329882000E-4	+2.45628035801000E-2	+4.58715481059000E-5	-5.32509265527000E-4	-9.41520583701000E-5	+9.75227035408000E-1	-3.24634681575000E-4
+9.74886808987000E-1	-3.96427071988000E-4	-5.12690166458000E-4	-8.73804851313000E-5	+2.44802077714000E-2	+3.46887368282000E-5	+5.15414580215000E-4	+1.16808484378000E-4
-5.37911387386000E-4	-9.71134508379000E-5	+9.75385517916000E-1	-3.83532859548000E-4	+5.37811869390000E-4	+1.22563187835000E-4	+2.48217441570000E-2	+2.23612115241000E-5
+1.10028480988000E+5	+2.50044153665000E-2	-7.07952374302000E-6	+5.49918507859000E-4	+1.10387398800000E-4	+9.75387087671000E-1	-3.68016138372000E-4	-5.32836418948000E-4	-1.05849238028000E-4
+5.44682485586000E-4	+1.37979303362000E-4	+2.45635015669000E-2	+7.41022117584000E-5	-5.18783535262000E-4	-1.03053282336000E-4	+9.75206290187000E-1	-3.04938516070000E-4
+9.74889305554000E-1	-3.79409838988000E-4	-5.32787302935000E-4	-9.48435426653000E-5	+2.45334465951000E-2	+4.94802567998000E-5	+5.33805598051000E-4	+1.16890075595000E-4
-5.34918018474000E-4	-8.76539362368000E-5	+9.75409911977000E-1	-4.02018021906000E-4	+5.25704448639000E-4	+1.06978584063000E-4	+2.48239790797000E-2	+3.66382278335000E-5
+1.10864187737000E+5	+2.50516573369000E-2	-6.34815003205000E-6	+5.23967154816000E-4	+1.00942072866000E-4	+9.75405165016000E-1	-3.72608752041000E-4	-5.25177512643000E-4	-9.09840486330000E-5
+5.35544952351000E-4	+1.26885255362000E-4	+2.45880962735000E-2	+3.99704595599000E-5	-5.28317522264000E-4	-8.21925784153000E-5	+9.75226717150000E-1	-3.52608565489000E-4
+9.74895208650000E-1	-4.03172809970000E-4	-5.28314822137000E-4	-9.00939370661000E-5	+2.45352838900000E-2	+4.02112562353000E-5	+5.18703684701000E-4	+1.18104952544000E-4
-5.29855680303000E-4	-9.56866237954000E-5	+9.75418566992000E-1	-3.69999998957000E-4	+5.21135262182000E-4	+1.31798322903000E-4	+2.48607627232000E-2	+6.85450640668000E-5
+1.11699894486000E+5	+2.50581197683000E-2	+1.07526293683000E-5	+5.22636788130000E-4	+1.16505547109000E-4	+9.75388922901000E-1	-3.74600179765000E-4	-5.20326317621000E-4	-9.57424663621000E-5
+5.20514267059000E-4	+1.16165904092000E-4	+2.45731188642000E-2	+7.68840916769000E-5	-5.28903883658000E-4	-1.01273532602000E-4	+9.75229939963000E-1	-3.09181823619000E-4
+9.74911053561000E-1	-3.91007915569000E-4	-5.33556290577000E-4	-1.01639053459000E-4	+2.45224989111000E-2	+5.35735350000000E-5	+5.29009203115000E-4	+1.21111543718000E-4
-5.51389903231000E-4	-9.81269477395000E-5	+9.75388998621000E-1	-3.48747752484000E-4	+4.98916704376000E-4	+1.22240121627000E-4	+2.48721298897000E-2	+3.94800149751000E-5
+1.12535601235000E+5	+2.50522902762000E-2	-1.07453113412000E-5	+5.35474926248000E-4	+1.16117584820000E-4	+9.75391523536000E-1	-3.87647410820000E-4	-5.28844493507000E-4	-8.53649403258000E-5
+5.24551494059000E-4	+1.25244112876000E-4	+2.45830747730000E-2	+5.38612541856000E-5	-5.24476100177000E-4	-1.00664352362000E-4	+9.75200957357000E-1	-3.35185472342000E-4
+9.74884511318000E-1	-3.89930718791000E-4	-5.39602901038000E-4	-1.07353339184000E-4	+2.45185193585000E-2	+2.18524592613000E-5	+5.25799689472000E-4	+1.13712205877000E-4
-5.43267645486000E-4	-8.51320517212000E-5	+9.75386851115000E-1	-3.94561384886000E-4	+5.32205785146000E-4	+1.25013680322000E-4	+2.48159619418000E-2	+1.55352822537000E-5
+1.13371307984000E+5	+2.50547781428000E-2	-2.30080613792000E-5	+5.18709367398000E-4	+1.14064835044000E-4	+9.75366323277000E-1	-3.52115709838000E-4	-5.35062872081000E-4	-1.09556031252000E-4
+5.34721448737000E-4	+1.16378742023000E-4	+2.45621202564000E-2	+5.65268756311000E-5	-5.29752473530000E-4	-9.42229077451000E-5	+9.75196203515000E-1	-3.15488218530000E-4
+9.74872791121000E-1	-4.19262664036000E-4	-5.18037250095000E-4	-8.89747088740000E-5	+2.45004800234000E-2	+8.47969023406000E-5	+5.37691870520000E-4	+1.24183929983000E-4
-5.36913861899000E-4	-7.51120081857000E-5	+9.75375551548000E-1	-4.02072381557000E-4	+5.26754462103000E-4	+1.11530662311000E-4	+2.47986716101000E-2	+6.48186946043000E-5
+1.14207014733000E+5	+2.50764367596000E-2	+1.40179924282000E-5	+5.38336363301000E-4	+1.27440567047000E-4	+9.75389595803000E-1	-3.93362761555000E-4	-5.41550062028000E-4	-1.02494775687000E-4
+5.43987109563000E-4	+1.27391842457000E-4	+2.45801687751000E-2	+5.59728773947000E-5	-5.32213114180000E-4	-8.43451593900000E-5	+9.75196048610000E-1	-2.81677824147000E-4
+9.74907876899000E-1	-4.11835373109000E-4	-5.29171168662000E-4	-8.91403477423000E-5	+2.45047594791000E-2	+2.73899995291000E-5	+5.09023170382000E-4	+1.30020724366000E-4
-5.33438962669000E-4	-1.00953042963000E-4	+9.75403576733000E-1	-3.66202166095000E-4	+5.19783653656000E-4	+1.16946454617000E-4	+2.48252062664000E-2	+8.21728038247000E-5
+1.15042721481000E+5	+2.50332526919000E-2	+1.11378044724000E-5	+5.26407962802000E-4	+1.37428065771000E-4	+9.75385515141000E-1	-3.89453805241000E-4	-5.14137148304000E-4	-9.18816413405000E-5
+5.30004343990000E-4	+1.18722257710000E-4	+2.45823271941000E-2	+5.39531726294000E-5	-5.33287188731000E-4	-9.68598780573000E-5	+9.75236471944000E-1	-3.43174715337000E-4
+9.74860620101000E-1	-3.98501877272000E-4	-5.28417371766000E-4	-8.65468473229000E-5	+2.45183722123000E-2	+3.72884379627000E-5	+5.41425860402000E-4	+1.36095088265000E-4
-5.43738561947000E-4	-9.35016845887000E-5	+9.75404184044000E-1	-3.54888336905000E-4	+5.25935569250000E-4	+1.28067953226000E-4	+2.48401165615000E-2	+5.95992280572000E-5
+1.15878428230000E+5	+2.50509059613000E-2	+6.85891502520000E-6	+5.32313142835000E-4	+1.15275976234000E-4	+9.75388930199000E-1	-3.63999001567000E-4	-5.31114440504000E-4	-9.77604691183000E-5
+5.41904084703000E-4	+1.25122215187000E-4	+2.45973353749000E-2	+6.77152576551000E-5	-5.26155824368000E-4	-9.13943318329000E-5	+9.75205192480000E-1	-3.48641862194000E-4
+9.74890039812000E-1	-4.05273995196000E-4	-5.24570938359000E-4	-9.07357761169000E-5	+2.45286180908000E-2	+6.67538236881000E-5	+5.35129446875000E-4	+1.22577322593000E-4
-5.28307528516000E-4	-7.45983818290000E-5	+9.75386138097000E-1	-4.03125604626000E-4	+5.25321962753000E-4	+1.04757412288000E-4	+2.48657940310000E-2	+3.03297192269000E-5
+1.16714134979000E+5	+2.50331483082000E-2	-6.46845451434000E-6	+5.25060207957000E-4	+1.14312430705000E-4	+9.75411034756000E-1	-3.83452881828000E-4	-5.27605121823000E-4	-8.89144615759000E-5
+5.34507032869000E-4	+1.24012368095000E-4	+2.45986274458000E-2	+7.10816719801000E-5	-5.24864391554000E-4	-8.47585060376000E-5	+9.75181254182000E-1	-3.28676681750000E-4
+9.74849666401000E-1	-4.06286759172000E-4	-5.21731281010000E-4	-8.79135207247000E-5	+2.45021202468000E-2	+3.51599753415000E-5	+5.40447867589000E-4	+1.05710708133000E-4
-5.48099119667000E-4	-8.67456694242000E-5	+9.75395221694000E-1	-3.46816440390000E-4	+5.14881569504000E-4	+1.20244854306000E-4	+2.48212861793000E-2	+6.29526699688000E-5
+1.17549841728000E+5	+2.50522269502000E-2	-1.18753331932000E-5	+5.26430191189000E-4	+1.10250516452000E-4	+9.75394786608000E-1	-4.22143859053000E-4	-5.13608286806000E-4	-8.32592104233000E-5
+5.49770279774000E-4	+1.15418320141000E-4	+2.45735740315000E-2	+6.09729421400000E-5	-5.20898030282000E-4	-7.24258825019000E-5	+9.75185293925000E-1	-3.24048076594000E-4
+9.74880451826000E-1	-3.88845418411000E-4	-5.26023587799000E-4	-8.07626660702000E-5	+2.45308050366000E-2	+3.60308320309000E-5	+5.25558544996000E-4	+1.09623831014000E-4
-5.21681761145000E-4	-9.29497841834000E-5	+9.75380071019000E-1	-3.93301141780000E-4	+5.40732760044000E-4	+1.22447171589000E-4	+2.48486265865000E-2	+4.00143409260000E-5
+1.18385548477000E+5	+2.50486623434000E-2	-1.53704204191000E-5	+5.34801802952000E-4	+1.17994751329000E-4	+9.75416996405000E-1	-4.02104982273000E-4	-5.14185451119000E-4	-9.05780304369000E-5
+5.45595957707000E-4	+1.20201808053000E-4	+2.45759101903000E-2	+5.03415287718000E-5	-5.21641759513000E-4	-8.44461426432000E-5	+9.75213011154000E-1	-3.74383160208000E-4
+9.74919705421000E-1	-4.30720492921000E-4	-5.29768512766000E-4	-9.27397662582000E-5	+2.45364138537000E-2	+4.11414566145000E-5	+5.38048816290000E-4	+1.25635115614000E-4
-5.47971212369000E-4	-9.15832306606000E-5	+9.75412725705000E-1	-4.00553125438000E-4	+5.24118532718000E-4	+1.29008325621000E-4	+2.48941316700000E-2	+2.88673189219000E-5
+1.19221255226000E+5	+2.50287502394000E-2	+1.84285630437000E-5	+5.25334742110000E-4	+1.07518997963000E-4	+9.75421685436000E-1	-3.57417836320000E-4	-5.45812038298000E-4	-8.99851247495000E-5
+5.37876501165000E-4	+1.25590783791000E-4	+2.46007024820000E-2	+4.45728412799000E-5	-5.17149171713000E-4	-7.91862031395000E-5	+9.75171919911000E-1	-3.14775833661000E-4
+9.74880735396000E-1	-3.93934542256000E-4	-5.23220798590000E-4	-8.19243607511000E-5	+2.45395590810000E-2	+8.11798960182000E-5	+5.39363576238000E-4	+1.23554575145000E-4
-5.48416958137000E-4	-8.97518167930000E-5	+9.75369045470000E-1	-3.77452117935000E-4	+5.06910593868000E-4	+1.24452504291000E-4	+2.48295615428000E-2	+4.27312779035000E-5
+1.20056961975000E+5	+2.50621487573000E-2	-4.57722349706000E-6	+5.30628167693000E-4	+1.12271574125000E-4	+9.75395026817000E-1	-4.00075771533000E-4	-5.45535546164000E-4	-8.69610435824000E-5
+5.53286633758000E-4	+1.25882100684000E-4	+2.46226750953000E-2	+5.56084961132000E-5	-5.29456022789000E-4	-9.30839108859000E-5	+9.75219486245000E-1	-3.74127731955000E-4
+9.74905246340000E-1	-4.30767043797000E-4	-5.25524819797000E-4	-7.96967508817000E-5	+2.45420341500000E-2	+8.33868439538000E-5	+5.43315772192000E-4	+1.20100603617000E-4
-5.48884516087000E-4	-1.00263502708000E-4	+9.75413347123000E-1	-3.74782608625000E-4	+5.27083890563000E-4	+1.13033037412000E-4	+2.48579853364000E-2	+3.52862468288000E-5
+1.20892668724000E+5	+2.50609096697000E-2	+7.25772606342000E-6	+5.25113034635000E-4	+1.27565644570000E-4	+9.75401792813000E-1	-3.75275351095000E-4	-5.07420459717000E-4	-9.16052811300000E-5
+5.28914655733000E-4	+1.31313672251000E-4	+2.45986045856000E-2	+4.71357768955000E-5	-5.32891240485000E-4	-7.30237011716000E-5	+9.75190975252000E-1	-3.16034466544000E-4
+9.74878565915000E-1	-4.23707933170000E-4	-5.29047029382000E-4	-9.02250365718000E-5	+2.45387597502000E-2	+5.33288066550000E-5	+5.27961592587000E-4	+1.19091621364000E-4
-5.44102494919000E-4	-9.50269710762000E-5	+9.75403098844000E-1	-3.98751038420000E-4	+5.17328582804000E-4	+1.27842833936000E-4	+2.48514986493000E-2	+5.53459955447000E-5
+1.21728375473000E+5	+2.51044521258000E-2	-1.69890224604000E-5	+5.13977640201000E-4	+1.36118212271000E-4	+9.75415416851000E-1	-4.03689253028000E-4	-5.29007770614000E-4	-8.70448779255000E-5
+5.36186282454000E-4	+1.24783353372000E-4	+2.45783968634000E-2	+4.18998566828000E-5	-5.26818035992000E-4	-7.46659888800000E-5	+9.75202172394000E-1	-3.23571967646000E-4
+9.74890373227000E-1	-4.11512691064000E-4	-5.25659659416000E-4	-1.00228801046000E-4	+2.45279590824000E-2	+5.71959398426000E-5	+5.45101413274000E-4	+1.14323456149000E-4
-5.43585745005000E-4	-7.63183671266000E-5	+9.75416632492000E-1	-3.94350300016000E-4	+5.39449384692000E-4	+1.24136988564000E-4	+2.48494291402000E-2	+7.67915165330000E-5
+1.22564082222000E+5	+2.50806773522000E-2	-4.70662892470000E-6	+5.28675854146000E-4	+1.09149583254000E-4	+9.75380453482000E-1	-4.04213812871000E-4	-5.21680069093000E-4	-8.24079453639000E-5
